
T01A4 000:319 SEGGER J-Link V4.99a (beta) Log File (0002ms, 0272ms total)
T01A4 000:319 DLL Compiled: May  8 2015 17:35:47 (0002ms, 0272ms total)
T01A4 000:319 Logging started @ 2015-11-04 22:21 (0002ms, 0272ms total)
T01A4 000:321 JLINK_SetWarnOutHandler(...) (0000ms, 0272ms total)
T01A4 000:321 JLINK_OpenEx(...)
Firmware: J-Link ARM V8 compiled Nov 28 2014 13:44:46
Hardware: V8.00
S/N: 17935099
Feature(s): RDI,FlashDL,FlashBP,JFlash  returns O.K. (0264ms, 0536ms total)
T01A4 000:585 JLINK_SetErrorOutHandler(...) (0000ms, 0536ms total)
T01A4 000:585 JLINK_ExecCommand("ProjectFile = "F:\ETH_Mange\Project\RVMDK\JLinkSettings.ini"", ...)  returns 0x00 (0002ms, 0538ms total)
T01A4 000:602 JLINK_ExecCommand("Device = STM32F107VC", ...)Device "STM32F107VC" selected.  returns 0x00 (0010ms, 0548ms total)
T01A4 000:612 JLINK_ExecCommand("DisableConnectionTimeout", ...)  returns 0x01 (0000ms, 0548ms total)
T01A4 000:612 JLINK_GetHardwareVersion()  returns 0x13880 (0000ms, 0548ms total)
T01A4 000:612 JLINK_GetDLLVersion()  returns 49901 (0000ms, 0548ms total)
T01A4 000:612 JLINK_GetFirmwareString(...) (0000ms, 0548ms total)
T01A4 000:636 JLINK_GetDLLVersion()  returns 49901 (0000ms, 0548ms total)
T01A4 000:636 JLINK_GetCompileDateTime() (0000ms, 0548ms total)
T01A4 000:644 JLINK_GetFirmwareString(...) (0000ms, 0548ms total)
T01A4 000:650 JLINK_GetHardwareVersion()  returns 0x13880 (0000ms, 0548ms total)
T01A4 000:678 JLINK_TIF_Select(JLINKARM_TIF_JTAG)  returns 0x00 (0002ms, 0550ms total)
T01A4 000:680 JLINK_SetSpeed(50000) (0001ms, 0551ms total)
T01A4 000:681 JLINK_GetIdData(...) >0x2F8 JTAG>TotalIRLen = 9, IRPrint = 0x0011 >0x30 JTAG> >0x210 JTAG> >0x40 JTAG> >0x40 JTAG> >0x40 JTAG> >0x30 JTAG> >0x40 JTAG> >0x40 JTAG> >0x40 JTAG> >0x40 JTAG> >0x40 JTAG> >0x40 JTAG> >0x40 JTAG> >0x40 JTAG> >0x2F8 JTAG>TotalIRLen = 9, IRPrint = 0x0011 >0x30 JTAG> >0x210 JTAG> >0x70 JTAG> >0x40 JTAG> >0x40 JTAG> >0x40 JTAG> >0x50 JTAG> >0x80 JTAG> >0x40 JTAG> >0x30 JTAG> >0x40 JTAG> >0x40 JTAG> >0x30 JTAG> >0x40 JTAG> >0x50 JTAG>
Found Cortex-M3 r1p1, Little endian. -- CPU_WriteMem(4 bytes @ 0xE0002000) -- CPU_ReadMem(4 bytes @ 0xE000EDF0) -- CPU_ReadMem(4 bytes @ 0xE0002000)FPUnit: 6 code (BP) slots and 2 literal slots -- CPU_ReadMem(4 bytes @ 0xE000EDFC) -- CPU_ReadMem(4 bytes @ 0xE0001000) -- CPU_WriteMem(4 bytes @ 0xE0001000) -- CPU_ReadMem(4 bytes @ 0xE000ED88) -- CPU_WriteMem(4 bytes @ 0xE000ED88) -- CPU_ReadMem(4 bytes @ 0xE000ED88) -- CPU_WriteMem(4 bytes @ 0xE000ED88)CoreSight components:ROMTbl 0 @ E00FF000
 -- CPU_ReadMem(16 bytes @ 0xE00FF000) -- CPU_ReadMem(16 bytes @ 0xE000EFF0) -- CPU_ReadMem(16 bytes @ 0xE000EFE0)ROMTbl 0 [0]: FFF0F000, CID: B105E00D, PID: 001BB000 SCS -- CPU_ReadMem(16 bytes @ 0xE0001FF0) -- CPU_ReadMem(16 bytes @ 0xE0001FE0)ROMTbl 0 [1]: FFF02000, CID: B105E00D, PID: 001BB002 DWT -- CPU_ReadMem(16 bytes @ 0xE0002FF0) -- CPU_ReadMem(16 bytes @ 0xE0002FE0)ROMTbl 0 [2]: FFF03000, CID: B105E00D, PID: 000BB003 FPB -- CPU_ReadMem(16 bytes @ 0xE0000FF0)
 -- CPU_ReadMem(16 bytes @ 0xE0000FE0)ROMTbl 0 [3]: FFF01000, CID: B105E00D, PID: 001BB001 ITM -- CPU_ReadMem(16 bytes @ 0xE00FF010) -- CPU_ReadMem(16 bytes @ 0xE0040FF0) -- CPU_ReadMem(16 bytes @ 0xE0040FE0)ROMTbl 0 [4]: FFF41000, CID: B105900D, PID: 001BB923 TPIU-Lite -- CPU_ReadMem(16 bytes @ 0xE0041FF0) -- CPU_ReadMem(16 bytes @ 0xE0041FE0)ROMTbl 0 [5]: FFF42000, CID: B105900D, PID: 101BB924 ETM-M3 ScanLen=9 NumDevices=2 aId[0]=0x3BA00477 aIrRead[0]=0 aScanLen[0]=0 aScanRead[0]=0
 (0125ms, 0676ms total)
T01A4 000:806 JLINK_JTAG_GetDeviceID(DeviceIndex = 0)  returns 0x3BA00477 (0000ms, 0676ms total)
T01A4 000:806 JLINK_JTAG_GetDeviceInfo(DeviceIndex = 0)  returns 0x00 (0000ms, 0676ms total)
T01A4 000:806 JLINK_JTAG_GetDeviceID(DeviceIndex = 1)  returns 0x6418041 (0000ms, 0676ms total)
T01A4 000:806 JLINK_JTAG_GetDeviceInfo(DeviceIndex = 1)  returns 0x00 (0000ms, 0676ms total)
T01A4 000:806 JLINK_GetDLLVersion()  returns 49901 (0000ms, 0676ms total)
T01A4 000:806 JLINK_CORE_GetFound()  returns 0x30000FF (0000ms, 0676ms total)
T01A4 000:806 JLINK_GetDebugInfo(0x100) -- Value=0xE00FF003  returns 0x00 (0000ms, 0676ms total)
T01A4 000:814 JLINK_ReadMem (0xE00FF000, 0x0020 Bytes, ...) -- CPU is running -- CPU_ReadMem(32 bytes @ 0xE00FF000) - Data: 03 F0 F0 FF 03 20 F0 FF 03 30 F0 FF 03 10 F0 FF ...  returns 0x00 (0001ms, 0677ms total)
T01A4 000:815 JLINK_ReadMem (0xE000EFF0, 0x0010 Bytes, ...) -- CPU is running -- CPU_ReadMem(16 bytes @ 0xE000EFF0) - Data: 0D 00 00 00 E0 00 00 00 05 00 00 00 B1 00 00 00  returns 0x00 (0000ms, 0677ms total)
T01A4 000:815 JLINK_ReadMem (0xE000EFD0, 0x0020 Bytes, ...) -- CPU is running -- CPU_ReadMem(32 bytes @ 0xE000EFD0) - Data: 04 00 00 00 00 00 00 00 00 00 00 00 00 00 00 00 ...  returns 0x00 (0001ms, 0678ms total)
T01A4 000:816 JLINK_ReadMem (0xE0001FF0, 0x0010 Bytes, ...) -- CPU is running -- CPU_ReadMem(16 bytes @ 0xE0001FF0) - Data: 0D 00 00 00 E0 00 00 00 05 00 00 00 B1 00 00 00  returns 0x00 (0001ms, 0679ms total)
T01A4 000:817 JLINK_ReadMem (0xE0001FD0, 0x0020 Bytes, ...) -- CPU is running -- CPU_ReadMem(32 bytes @ 0xE0001FD0) - Data: 04 00 00 00 00 00 00 00 00 00 00 00 00 00 00 00 ...  returns 0x00 (0001ms, 0680ms total)
T01A4 000:818 JLINK_ReadMem (0xE0002FF0, 0x0010 Bytes, ...) -- CPU is running -- CPU_ReadMem(16 bytes @ 0xE0002FF0) - Data: 0D 00 00 00 E0 00 00 00 05 00 00 00 B1 00 00 00  returns 0x00 (0000ms, 0680ms total)
T01A4 000:818 JLINK_ReadMem (0xE0002FD0, 0x0020 Bytes, ...) -- CPU is running -- CPU_ReadMem(32 bytes @ 0xE0002FD0) - Data: 04 00 00 00 00 00 00 00 00 00 00 00 00 00 00 00 ...  returns 0x00 (0001ms, 0681ms total)
T01A4 000:819 JLINK_ReadMem (0xE0000FF0, 0x0010 Bytes, ...) -- CPU is running -- CPU_ReadMem(16 bytes @ 0xE0000FF0) - Data: 0D 00 00 00 E0 00 00 00 05 00 00 00 B1 00 00 00  returns 0x00 (0001ms, 0682ms total)
T01A4 000:820 JLINK_ReadMem (0xE0000FD0, 0x0020 Bytes, ...) -- CPU is running -- CPU_ReadMem(32 bytes @ 0xE0000FD0) - Data: 04 00 00 00 00 00 00 00 00 00 00 00 00 00 00 00 ...  returns 0x00 (0001ms, 0683ms total)
T01A4 000:821 JLINK_ReadMem (0xE0040FF0, 0x0010 Bytes, ...) -- CPU is running -- CPU_ReadMem(16 bytes @ 0xE0040FF0) - Data: 0D 00 00 00 90 00 00 00 05 00 00 00 B1 00 00 00  returns 0x00 (0000ms, 0683ms total)
T01A4 000:821 JLINK_ReadMem (0xE0040FD0, 0x0020 Bytes, ...) -- CPU is running -- CPU_ReadMem(32 bytes @ 0xE0040FD0) - Data: 04 00 00 00 00 00 00 00 00 00 00 00 00 00 00 00 ...  returns 0x00 (0001ms, 0684ms total)
T01A4 000:822 JLINK_ReadMem (0xE0041FF0, 0x0010 Bytes, ...) -- CPU is running -- CPU_ReadMem(16 bytes @ 0xE0041FF0) - Data: 0D 00 00 00 90 00 00 00 05 00 00 00 B1 00 00 00  returns 0x00 (0001ms, 0685ms total)
T01A4 000:823 JLINK_ReadMem (0xE0041FD0, 0x0020 Bytes, ...) -- CPU is running -- CPU_ReadMem(32 bytes @ 0xE0041FD0) - Data: 04 00 00 00 00 00 00 00 00 00 00 00 00 00 00 00 ...  returns 0x00 (0001ms, 0686ms total)
T01A4 000:824 JLINK_ReadMemU32(0xE000ED00, 0x0001 Items, ...) -- CPU is running -- CPU_ReadMem(4 bytes @ 0xE000ED00) - Data: 31 C2 1F 41  returns 0x01 (0000ms, 0686ms total)
T01A4 000:824 JLINK_SetResetType(JLINKARM_RESET_TYPE_NORMAL)  returns JLINKARM_RESET_TYPE_NORMAL (0000ms, 0686ms total)
T01A4 000:824 JLINK_Reset() -- CPU is running -- CPU_WriteMem(4 bytes @ 0xE000EDF0) -- CPU is running -- CPU_WriteMem(4 bytes @ 0xE000EDFC) -- CPU is running -- CPU_WriteMem(4 bytes @ 0xE000ED0C) -- CPU is running -- CPU_ReadMem(4 bytes @ 0xE000EDF0) -- CPU is running -- CPU_ReadMem(4 bytes @ 0xE000EDF0) -- CPU is running -- CPU_WriteMem(4 bytes @ 0xE000EDF0) -- CPU is running -- CPU_WriteMem(4 bytes @ 0xE000EDFC) -- CPU is running -- CPU_ReadMem(4 bytes @ 0xE000EDF0) >0x80 JTAG> >0x40 JTAG> >0x30 JTAG>
 >0x40 JTAG> >0x50 JTAG> >0x40 JTAG> -- CPU_WriteMem(4 bytes @ 0xE000EDFC) -- CPU_WriteMem(4 bytes @ 0xE0001028) -- CPU_WriteMem(4 bytes @ 0xE0001038) -- CPU_WriteMem(4 bytes @ 0xE0001048) -- CPU_WriteMem(4 bytes @ 0xE0001058) -- CPU_WriteMem(4 bytes @ 0xE0002000) -- CPU_ReadMem(4 bytes @ 0xE000EDFC) -- CPU_ReadMem(4 bytes @ 0xE0001000) (0026ms, 0712ms total)
T01A4 000:850 JLINK_Halt()  returns 0x00 (0000ms, 0712ms total)
T01A4 000:851 JLINK_IsHalted()  returns TRUE (0000ms, 0713ms total)
T01A4 000:851 JLINK_ReadMemU32(0xE000EDF0, 0x0001 Items, ...) -- CPU_ReadMem(4 bytes @ 0xE000EDF0) - Data: 03 00 03 00  returns 0x01 (0000ms, 0713ms total)
T01A4 000:851 JLINK_WriteU32(0xE000EDF0, 0xA05F0003) -- CPU_WriteMem(4 bytes @ 0xE000EDF0)  returns 0x00 (0001ms, 0714ms total)
T01A4 000:852 JLINK_WriteU32(0xE000EDFC, 0x01000000) -- CPU_WriteMem(4 bytes @ 0xE000EDFC)  returns 0x00 (0000ms, 0714ms total)
T01A4 000:881 JLINK_GetHWStatus(...)  returns 0x00 (0000ms, 0714ms total)
T01A4 000:902 JLINK_GetNumBPUnits(Type = 0xFFFFFF00)  returns 0x06 (0000ms, 0714ms total)
T01A4 000:902 JLINK_GetNumBPUnits(Type = 0xF0)  returns 0x2000 (0000ms, 0714ms total)
T01A4 000:902 JLINK_GetNumWPUnits()  returns 0x04 (0000ms, 0714ms total)
T01A4 000:923 JLINK_GetSpeed()  returns 0x2EE0 (0000ms, 0714ms total)
T01A4 000:937 JLINK_ReadMemU32(0xE000E004, 0x0001 Items, ...) -- CPU_ReadMem(4 bytes @ 0xE000E004) - Data: 02 00 00 00  returns 0x01 (0001ms, 0715ms total)
T01A4 000:938 JLINK_ReadMemU32(0xE000E004, 0x0001 Items, ...) -- CPU_ReadMem(4 bytes @ 0xE000E004) - Data: 02 00 00 00  returns 0x01 (0001ms, 0716ms total)
T01A4 000:939 JLINK_WriteMem(0xE0001000, 0x001C Bytes, ...) - Data: 01 00 00 00 00 00 00 00 00 00 00 00 00 00 00 00 ... -- CPU_WriteMem(28 bytes @ 0xE0001000)  returns 0x1C (0001ms, 0717ms total)
T01A4 000:940 JLINK_ReadMem (0xE0001000, 0x001C Bytes, ...) -- CPU_ReadMem(28 bytes @ 0xE0001000) - Data: 01 00 00 40 00 00 00 00 00 00 00 00 00 00 00 00 ...  returns 0x00 (0001ms, 0718ms total)
T01A4 000:941 JLINK_Halt()  returns 0x00 (0000ms, 0718ms total)
T01A4 000:941 JLINK_IsHalted()  returns TRUE (0000ms, 0718ms total)
T01A4 000:944 JLINK_WriteMem(0x20000000, 0x0164 Bytes, ...) - Data: 00 BE 0A E0 0D 78 2D 06 68 40 08 24 40 00 00 D3 ... -- CPU_WriteMem(356 bytes @ 0x20000000)  returns 0x164 (0003ms, 0721ms total)
T01A4 000:947 JLINK_WriteReg(R0, 0x08000000)  returns 0x00 (0000ms, 0721ms total)
T01A4 000:947 JLINK_WriteReg(R1, 0x00B71B00)  returns 0x00 (0000ms, 0721ms total)
T01A4 000:947 JLINK_WriteReg(R2, 0x00000001)  returns 0x00 (0000ms, 0721ms total)
T01A4 000:947 JLINK_WriteReg(R3, 0x00000000)  returns 0x00 (0000ms, 0721ms total)
T01A4 000:947 JLINK_WriteReg(R4, 0x00000000)  returns 0x00 (0000ms, 0721ms total)
T01A4 000:947 JLINK_WriteReg(R5, 0x00000000)  returns 0x00 (0000ms, 0721ms total)
T01A4 000:947 JLINK_WriteReg(R6, 0x00000000)  returns 0x00 (0000ms, 0721ms total)
T01A4 000:947 JLINK_WriteReg(R7, 0x00000000)  returns 0x00 (0000ms, 0721ms total)
T01A4 000:947 JLINK_WriteReg(R8, 0x00000000)  returns 0x00 (0000ms, 0721ms total)
T01A4 000:947 JLINK_WriteReg(R9, 0x20000160)  returns 0x00 (0000ms, 0721ms total)
T01A4 000:947 JLINK_WriteReg(R10, 0x00000000)  returns 0x00 (0000ms, 0721ms total)
T01A4 000:947 JLINK_WriteReg(R11, 0x00000000)  returns 0x00 (0000ms, 0721ms total)
T01A4 000:947 JLINK_WriteReg(R12, 0x00000000)  returns 0x00 (0000ms, 0721ms total)
T01A4 000:947 JLINK_WriteReg(R13 (SP), 0x20001000)  returns 0x00 (0000ms, 0721ms total)
T01A4 000:947 JLINK_WriteReg(R14, 0x20000001)  returns 0x00 (0001ms, 0722ms total)
T01A4 000:948 JLINK_WriteReg(R15 (PC), 0x20000038)  returns 0x00 (0000ms, 0722ms total)
T01A4 000:948 JLINK_WriteReg(XPSR, 0x01000000)  returns 0x00 (0000ms, 0722ms total)
T01A4 000:948 JLINK_WriteReg(MSP, 0x20001000)  returns 0x00 (0000ms, 0722ms total)
T01A4 000:948 JLINK_WriteReg(PSP, 0x20001000)  returns 0x00 (0000ms, 0722ms total)
T01A4 000:948 JLINK_WriteReg(CFBP, 0x00000000)  returns 0x00 (0000ms, 0722ms total)
T01A4 000:948 JLINK_SetBPEx(Addr = 0x20000000, Type = 0xFFFFFFF2) -- CPU_ReadMem(2 bytes @ 0x20000000)  returns 0x00000001 (0001ms, 0723ms total)
T01A4 000:949 JLINK_Go() -- CPU_WriteMem(2 bytes @ 0x20000000) -- CPU_ReadMem(4 bytes @ 0xE0001000) -- CPU_WriteMem(4 bytes @ 0xE0002008) -- CPU_WriteMem(4 bytes @ 0xE000200C) -- CPU_WriteMem(4 bytes @ 0xE0002010) -- CPU_WriteMem(4 bytes @ 0xE0002014) -- CPU_WriteMem(4 bytes @ 0xE0002018) -- CPU_WriteMem(4 bytes @ 0xE000201C) -- CPU_WriteMem(4 bytes @ 0xE0001004) (0005ms, 0728ms total)
T01A4 000:954 JLINK_IsHalted() -- CPU_ReadMem(2 bytes @ 0x20000000)  returns TRUE (0003ms, 0731ms total)
T01A4 000:957 JLINK_ReadReg(R15 (PC))  returns 0x20000000 (0000ms, 0728ms total)
T01A4 000:957 JLINK_ClrBPEx(BPHandle = 0x00000001)  returns 0x00 (0000ms, 0728ms total)
T01A4 000:957 JLINK_ReadReg(R0)  returns 0x00000000 (0000ms, 0728ms total)
T01A4 000:958 JLINK_WriteReg(R0, 0x08000000)  returns 0x00 (0000ms, 0728ms total)
T01A4 000:958 JLINK_WriteReg(R1, 0x00000800)  returns 0x00 (0000ms, 0728ms total)
T01A4 000:958 JLINK_WriteReg(R2, 0x000000FF)  returns 0x00 (0000ms, 0728ms total)
T01A4 000:958 JLINK_WriteReg(R3, 0x00000000)  returns 0x00 (0000ms, 0728ms total)
T01A4 000:958 JLINK_WriteReg(R4, 0x00000000)  returns 0x00 (0000ms, 0728ms total)
T01A4 000:958 JLINK_WriteReg(R5, 0x00000000)  returns 0x00 (0000ms, 0728ms total)
T01A4 000:958 JLINK_WriteReg(R6, 0x00000000)  returns 0x00 (0000ms, 0728ms total)
T01A4 000:958 JLINK_WriteReg(R7, 0x00000000)  returns 0x00 (0000ms, 0728ms total)
T01A4 000:958 JLINK_WriteReg(R8, 0x00000000)  returns 0x00 (0000ms, 0728ms total)
T01A4 000:958 JLINK_WriteReg(R9, 0x20000160)  returns 0x00 (0000ms, 0728ms total)
T01A4 000:958 JLINK_WriteReg(R10, 0x00000000)  returns 0x00 (0001ms, 0729ms total)
T01A4 000:959 JLINK_WriteReg(R11, 0x00000000)  returns 0x00 (0000ms, 0729ms total)
T01A4 000:959 JLINK_WriteReg(R12, 0x00000000)  returns 0x00 (0000ms, 0729ms total)
T01A4 000:959 JLINK_WriteReg(R13 (SP), 0x20001000)  returns 0x00 (0000ms, 0729ms total)
T01A4 000:959 JLINK_WriteReg(R14, 0x20000001)  returns 0x00 (0000ms, 0729ms total)
T01A4 000:959 JLINK_WriteReg(R15 (PC), 0x20000020)  returns 0x00 (0000ms, 0729ms total)
T01A4 000:959 JLINK_WriteReg(XPSR, 0x01000000)  returns 0x00 (0000ms, 0729ms total)
T01A4 000:959 JLINK_WriteReg(MSP, 0x20001000)  returns 0x00 (0000ms, 0729ms total)
T01A4 000:959 JLINK_WriteReg(PSP, 0x20001000)  returns 0x00 (0000ms, 0729ms total)
T01A4 000:959 JLINK_WriteReg(CFBP, 0x00000000)  returns 0x00 (0000ms, 0729ms total)
T01A4 000:959 JLINK_SetBPEx(Addr = 0x20000000, Type = 0xFFFFFFF2)  returns 0x00000002 (0000ms, 0729ms total)
T01A4 000:959 JLINK_Go() -- CPU_ReadMem(4 bytes @ 0xE0001000) (0003ms, 0732ms total)
T01A4 000:962 JLINK_IsHalted() -- CPU_ReadMem(2 bytes @ 0x20000000)  returns TRUE (0003ms, 0735ms total)
T01A4 000:965 JLINK_ReadReg(R15 (PC))  returns 0x20000000 (0000ms, 0732ms total)
T01A4 000:965 JLINK_ClrBPEx(BPHandle = 0x00000002)  returns 0x00 (0000ms, 0732ms total)
T01A4 000:965 JLINK_ReadReg(R0)  returns 0x00000001 (0000ms, 0732ms total)
T01A4 000:965 JLINK_WriteReg(R0, 0x08000000)  returns 0x00 (0000ms, 0732ms total)
T01A4 000:965 JLINK_WriteReg(R1, 0x00000800)  returns 0x00 (0000ms, 0732ms total)
T01A4 000:965 JLINK_WriteReg(R2, 0x000000FF)  returns 0x00 (0000ms, 0732ms total)
T01A4 000:965 JLINK_WriteReg(R3, 0x00000000)  returns 0x00 (0000ms, 0732ms total)
T01A4 000:965 JLINK_WriteReg(R4, 0x00000000)  returns 0x00 (0000ms, 0732ms total)
T01A4 000:965 JLINK_WriteReg(R5, 0x00000000)  returns 0x00 (0000ms, 0732ms total)
T01A4 000:965 JLINK_WriteReg(R6, 0x00000000)  returns 0x00 (0000ms, 0732ms total)
T01A4 000:965 JLINK_WriteReg(R7, 0x00000000)  returns 0x00 (0001ms, 0733ms total)
T01A4 000:966 JLINK_WriteReg(R8, 0x00000000)  returns 0x00 (0000ms, 0733ms total)
T01A4 000:966 JLINK_WriteReg(R9, 0x20000160)  returns 0x00 (0000ms, 0733ms total)
T01A4 000:966 JLINK_WriteReg(R10, 0x00000000)  returns 0x00 (0000ms, 0733ms total)
T01A4 000:966 JLINK_WriteReg(R11, 0x00000000)  returns 0x00 (0000ms, 0733ms total)
T01A4 000:966 JLINK_WriteReg(R12, 0x00000000)  returns 0x00 (0000ms, 0733ms total)
T01A4 000:966 JLINK_WriteReg(R13 (SP), 0x20001000)  returns 0x00 (0000ms, 0733ms total)
T01A4 000:966 JLINK_WriteReg(R14, 0x20000001)  returns 0x00 (0000ms, 0733ms total)
T01A4 000:966 JLINK_WriteReg(R15 (PC), 0x200000B6)  returns 0x00 (0000ms, 0733ms total)
T01A4 000:966 JLINK_WriteReg(XPSR, 0x01000000)  returns 0x00 (0000ms, 0733ms total)
T01A4 000:966 JLINK_WriteReg(MSP, 0x20001000)  returns 0x00 (0000ms, 0733ms total)
T01A4 000:966 JLINK_WriteReg(PSP, 0x20001000)  returns 0x00 (0000ms, 0733ms total)
T01A4 000:966 JLINK_WriteReg(CFBP, 0x00000000)  returns 0x00 (0000ms, 0733ms total)
T01A4 000:966 JLINK_SetBPEx(Addr = 0x20000000, Type = 0xFFFFFFF2)  returns 0x00000003 (0000ms, 0733ms total)
T01A4 000:966 JLINK_Go() -- CPU_ReadMem(4 bytes @ 0xE0001000) (0003ms, 0736ms total)
T01A4 000:969 JLINK_IsHalted()  returns FALSE (0000ms, 0736ms total)
T01A4 001:013 JLINK_IsHalted() -- CPU_ReadMem(2 bytes @ 0x20000000)  returns TRUE (0003ms, 0739ms total)
T01A4 001:016 JLINK_ReadReg(R15 (PC))  returns 0x20000000 (0000ms, 0736ms total)
T01A4 001:016 JLINK_ClrBPEx(BPHandle = 0x00000003)  returns 0x00 (0000ms, 0736ms total)
T01A4 001:016 JLINK_ReadReg(R0)  returns 0x00000000 (0000ms, 0736ms total)
T01A4 001:017 JLINK_WriteReg(R0, 0x08000800)  returns 0x00 (0000ms, 0736ms total)
T01A4 001:017 JLINK_WriteReg(R1, 0x00000800)  returns 0x00 (0000ms, 0736ms total)
T01A4 001:017 JLINK_WriteReg(R2, 0x000000FF)  returns 0x00 (0000ms, 0736ms total)
T01A4 001:017 JLINK_WriteReg(R3, 0x00000000)  returns 0x00 (0000ms, 0736ms total)
T01A4 001:017 JLINK_WriteReg(R4, 0x00000000)  returns 0x00 (0000ms, 0736ms total)
T01A4 001:017 JLINK_WriteReg(R5, 0x00000000)  returns 0x00 (0000ms, 0736ms total)
T01A4 001:017 JLINK_WriteReg(R6, 0x00000000)  returns 0x00 (0000ms, 0736ms total)
T01A4 001:017 JLINK_WriteReg(R7, 0x00000000)  returns 0x00 (0000ms, 0736ms total)
T01A4 001:017 JLINK_WriteReg(R8, 0x00000000)  returns 0x00 (0000ms, 0736ms total)
T01A4 001:017 JLINK_WriteReg(R9, 0x20000160)  returns 0x00 (0000ms, 0736ms total)
T01A4 001:017 JLINK_WriteReg(R10, 0x00000000)  returns 0x00 (0001ms, 0737ms total)
T01A4 001:018 JLINK_WriteReg(R11, 0x00000000)  returns 0x00 (0000ms, 0737ms total)
T01A4 001:018 JLINK_WriteReg(R12, 0x00000000)  returns 0x00 (0000ms, 0737ms total)
T01A4 001:018 JLINK_WriteReg(R13 (SP), 0x20001000)  returns 0x00 (0000ms, 0737ms total)
T01A4 001:018 JLINK_WriteReg(R14, 0x20000001)  returns 0x00 (0000ms, 0737ms total)
T01A4 001:018 JLINK_WriteReg(R15 (PC), 0x20000020)  returns 0x00 (0000ms, 0737ms total)
T01A4 001:018 JLINK_WriteReg(XPSR, 0x01000000)  returns 0x00 (0000ms, 0737ms total)
T01A4 001:018 JLINK_WriteReg(MSP, 0x20001000)  returns 0x00 (0000ms, 0737ms total)
T01A4 001:018 JLINK_WriteReg(PSP, 0x20001000)  returns 0x00 (0000ms, 0737ms total)
T01A4 001:018 JLINK_WriteReg(CFBP, 0x00000000)  returns 0x00 (0000ms, 0737ms total)
T01A4 001:018 JLINK_SetBPEx(Addr = 0x20000000, Type = 0xFFFFFFF2)  returns 0x00000004 (0000ms, 0737ms total)
T01A4 001:018 JLINK_Go() -- CPU_ReadMem(4 bytes @ 0xE0001000) (0002ms, 0739ms total)
T01A4 001:020 JLINK_IsHalted() -- CPU_ReadMem(2 bytes @ 0x20000000)  returns TRUE (0003ms, 0742ms total)
T01A4 001:023 JLINK_ReadReg(R15 (PC))  returns 0x20000000 (0000ms, 0739ms total)
T01A4 001:023 JLINK_ClrBPEx(BPHandle = 0x00000004)  returns 0x00 (0000ms, 0739ms total)
T01A4 001:023 JLINK_ReadReg(R0)  returns 0x00000001 (0000ms, 0739ms total)
T01A4 001:023 JLINK_WriteReg(R0, 0x08000800)  returns 0x00 (0000ms, 0739ms total)
T01A4 001:023 JLINK_WriteReg(R1, 0x00000800)  returns 0x00 (0000ms, 0739ms total)
T01A4 001:023 JLINK_WriteReg(R2, 0x000000FF)  returns 0x00 (0000ms, 0739ms total)
T01A4 001:024 JLINK_WriteReg(R3, 0x00000000)  returns 0x00 (0000ms, 0739ms total)
T01A4 001:024 JLINK_WriteReg(R4, 0x00000000)  returns 0x00 (0000ms, 0739ms total)
T01A4 001:024 JLINK_WriteReg(R5, 0x00000000)  returns 0x00 (0000ms, 0739ms total)
T01A4 001:024 JLINK_WriteReg(R6, 0x00000000)  returns 0x00 (0000ms, 0739ms total)
T01A4 001:024 JLINK_WriteReg(R7, 0x00000000)  returns 0x00 (0000ms, 0739ms total)
T01A4 001:024 JLINK_WriteReg(R8, 0x00000000)  returns 0x00 (0000ms, 0739ms total)
T01A4 001:024 JLINK_WriteReg(R9, 0x20000160)  returns 0x00 (0000ms, 0739ms total)
T01A4 001:024 JLINK_WriteReg(R10, 0x00000000)  returns 0x00 (0000ms, 0739ms total)
T01A4 001:024 JLINK_WriteReg(R11, 0x00000000)  returns 0x00 (0000ms, 0739ms total)
T01A4 001:024 JLINK_WriteReg(R12, 0x00000000)  returns 0x00 (0000ms, 0739ms total)
T01A4 001:024 JLINK_WriteReg(R13 (SP), 0x20001000)  returns 0x00 (0000ms, 0739ms total)
T01A4 001:024 JLINK_WriteReg(R14, 0x20000001)  returns 0x00 (0000ms, 0739ms total)
T01A4 001:024 JLINK_WriteReg(R15 (PC), 0x200000B6)  returns 0x00 (0000ms, 0739ms total)
T01A4 001:024 JLINK_WriteReg(XPSR, 0x01000000)  returns 0x00 (0000ms, 0739ms total)
T01A4 001:024 JLINK_WriteReg(MSP, 0x20001000)  returns 0x00 (0000ms, 0739ms total)
T01A4 001:024 JLINK_WriteReg(PSP, 0x20001000)  returns 0x00 (0000ms, 0739ms total)
T01A4 001:024 JLINK_WriteReg(CFBP, 0x00000000)  returns 0x00 (0000ms, 0739ms total)
T01A4 001:024 JLINK_SetBPEx(Addr = 0x20000000, Type = 0xFFFFFFF2)  returns 0x00000005 (0000ms, 0739ms total)
T01A4 001:024 JLINK_Go() -- CPU_ReadMem(4 bytes @ 0xE0001000) (0002ms, 0741ms total)
T01A4 001:026 JLINK_IsHalted()  returns FALSE (0001ms, 0742ms total)
T01A4 001:028 JLINK_IsHalted()  returns FALSE (0000ms, 0741ms total)
T01A4 001:029 JLINK_IsHalted()  returns FALSE (0000ms, 0741ms total)
T01A4 001:032 JLINK_IsHalted()  returns FALSE (0000ms, 0741ms total)
T01A4 001:033 JLINK_IsHalted()  returns FALSE (0000ms, 0741ms total)
T01A4 001:034 JLINK_IsHalted()  returns FALSE (0000ms, 0741ms total)
T01A4 001:035 JLINK_IsHalted()  returns FALSE (0000ms, 0741ms total)
T01A4 001:036 JLINK_IsHalted()  returns FALSE (0000ms, 0741ms total)
T01A4 001:037 JLINK_IsHalted()  returns FALSE (0000ms, 0741ms total)
T01A4 001:038 JLINK_IsHalted()  returns FALSE (0000ms, 0741ms total)
T01A4 001:039 JLINK_IsHalted()  returns FALSE (0000ms, 0741ms total)
T01A4 001:040 JLINK_IsHalted()  returns FALSE (0000ms, 0741ms total)
T01A4 001:041 JLINK_IsHalted()  returns FALSE (0000ms, 0741ms total)
T01A4 001:042 JLINK_IsHalted()  returns FALSE (0000ms, 0741ms total)
T01A4 001:043 JLINK_IsHalted()  returns FALSE (0000ms, 0741ms total)
T01A4 001:044 JLINK_IsHalted()  returns FALSE (0000ms, 0741ms total)
T01A4 001:045 JLINK_IsHalted()  returns FALSE (0000ms, 0741ms total)
T01A4 001:046 JLINK_IsHalted()  returns FALSE (0000ms, 0741ms total)
T01A4 001:047 JLINK_IsHalted()  returns FALSE (0000ms, 0741ms total)
T01A4 001:048 JLINK_IsHalted()  returns FALSE (0000ms, 0741ms total)
T01A4 001:049 JLINK_IsHalted() -- CPU_ReadMem(2 bytes @ 0x20000000)  returns TRUE (0003ms, 0744ms total)
T01A4 001:052 JLINK_ReadReg(R15 (PC))  returns 0x20000000 (0000ms, 0741ms total)
T01A4 001:052 JLINK_ClrBPEx(BPHandle = 0x00000005)  returns 0x00 (0000ms, 0741ms total)
T01A4 001:052 JLINK_ReadReg(R0)  returns 0x00000000 (0000ms, 0741ms total)
T01A4 001:052 JLINK_WriteReg(R0, 0x08001000)  returns 0x00 (0000ms, 0741ms total)
T01A4 001:052 JLINK_WriteReg(R1, 0x00000800)  returns 0x00 (0000ms, 0741ms total)
T01A4 001:052 JLINK_WriteReg(R2, 0x000000FF)  returns 0x00 (0000ms, 0741ms total)
T01A4 001:052 JLINK_WriteReg(R3, 0x00000000)  returns 0x00 (0000ms, 0741ms total)
T01A4 001:052 JLINK_WriteReg(R4, 0x00000000)  returns 0x00 (0000ms, 0741ms total)
T01A4 001:052 JLINK_WriteReg(R5, 0x00000000)  returns 0x00 (0001ms, 0742ms total)
T01A4 001:053 JLINK_WriteReg(R6, 0x00000000)  returns 0x00 (0000ms, 0742ms total)
T01A4 001:053 JLINK_WriteReg(R7, 0x00000000)  returns 0x00 (0000ms, 0742ms total)
T01A4 001:053 JLINK_WriteReg(R8, 0x00000000)  returns 0x00 (0000ms, 0742ms total)
T01A4 001:053 JLINK_WriteReg(R9, 0x20000160)  returns 0x00 (0000ms, 0742ms total)
T01A4 001:053 JLINK_WriteReg(R10, 0x00000000)  returns 0x00 (0000ms, 0742ms total)
T01A4 001:053 JLINK_WriteReg(R11, 0x00000000)  returns 0x00 (0000ms, 0742ms total)
T01A4 001:053 JLINK_WriteReg(R12, 0x00000000)  returns 0x00 (0000ms, 0742ms total)
T01A4 001:053 JLINK_WriteReg(R13 (SP), 0x20001000)  returns 0x00 (0000ms, 0742ms total)
T01A4 001:053 JLINK_WriteReg(R14, 0x20000001)  returns 0x00 (0000ms, 0742ms total)
T01A4 001:053 JLINK_WriteReg(R15 (PC), 0x20000020)  returns 0x00 (0000ms, 0742ms total)
T01A4 001:053 JLINK_WriteReg(XPSR, 0x01000000)  returns 0x00 (0000ms, 0742ms total)
T01A4 001:053 JLINK_WriteReg(MSP, 0x20001000)  returns 0x00 (0000ms, 0742ms total)
T01A4 001:053 JLINK_WriteReg(PSP, 0x20001000)  returns 0x00 (0000ms, 0742ms total)
T01A4 001:053 JLINK_WriteReg(CFBP, 0x00000000)  returns 0x00 (0000ms, 0742ms total)
T01A4 001:053 JLINK_SetBPEx(Addr = 0x20000000, Type = 0xFFFFFFF2)  returns 0x00000006 (0000ms, 0742ms total)
T01A4 001:053 JLINK_Go() -- CPU_ReadMem(4 bytes @ 0xE0001000) (0002ms, 0744ms total)
T01A4 001:055 JLINK_IsHalted() -- CPU_ReadMem(2 bytes @ 0x20000000)  returns TRUE (0004ms, 0748ms total)
T01A4 001:059 JLINK_ReadReg(R15 (PC))  returns 0x20000000 (0000ms, 0744ms total)
T01A4 001:059 JLINK_ClrBPEx(BPHandle = 0x00000006)  returns 0x00 (0000ms, 0744ms total)
T01A4 001:059 JLINK_ReadReg(R0)  returns 0x00000001 (0000ms, 0744ms total)
T01A4 001:059 JLINK_WriteReg(R0, 0x08001000)  returns 0x00 (0000ms, 0744ms total)
T01A4 001:059 JLINK_WriteReg(R1, 0x00000800)  returns 0x00 (0000ms, 0744ms total)
T01A4 001:059 JLINK_WriteReg(R2, 0x000000FF)  returns 0x00 (0000ms, 0744ms total)
T01A4 001:059 JLINK_WriteReg(R3, 0x00000000)  returns 0x00 (0000ms, 0744ms total)
T01A4 001:059 JLINK_WriteReg(R4, 0x00000000)  returns 0x00 (0000ms, 0744ms total)
T01A4 001:059 JLINK_WriteReg(R5, 0x00000000)  returns 0x00 (0000ms, 0744ms total)
T01A4 001:059 JLINK_WriteReg(R6, 0x00000000)  returns 0x00 (0000ms, 0744ms total)
T01A4 001:059 JLINK_WriteReg(R7, 0x00000000)  returns 0x00 (0001ms, 0745ms total)
T01A4 001:060 JLINK_WriteReg(R8, 0x00000000)  returns 0x00 (0000ms, 0745ms total)
T01A4 001:060 JLINK_WriteReg(R9, 0x20000160)  returns 0x00 (0000ms, 0745ms total)
T01A4 001:060 JLINK_WriteReg(R10, 0x00000000)  returns 0x00 (0000ms, 0745ms total)
T01A4 001:060 JLINK_WriteReg(R11, 0x00000000)  returns 0x00 (0000ms, 0745ms total)
T01A4 001:060 JLINK_WriteReg(R12, 0x00000000)  returns 0x00 (0000ms, 0745ms total)
T01A4 001:060 JLINK_WriteReg(R13 (SP), 0x20001000)  returns 0x00 (0000ms, 0745ms total)
T01A4 001:060 JLINK_WriteReg(R14, 0x20000001)  returns 0x00 (0000ms, 0745ms total)
T01A4 001:060 JLINK_WriteReg(R15 (PC), 0x200000B6)  returns 0x00 (0000ms, 0745ms total)
T01A4 001:060 JLINK_WriteReg(XPSR, 0x01000000)  returns 0x00 (0000ms, 0745ms total)
T01A4 001:060 JLINK_WriteReg(MSP, 0x20001000)  returns 0x00 (0000ms, 0745ms total)
T01A4 001:060 JLINK_WriteReg(PSP, 0x20001000)  returns 0x00 (0000ms, 0745ms total)
T01A4 001:060 JLINK_WriteReg(CFBP, 0x00000000)  returns 0x00 (0000ms, 0745ms total)
T01A4 001:060 JLINK_SetBPEx(Addr = 0x20000000, Type = 0xFFFFFFF2)  returns 0x00000007 (0000ms, 0745ms total)
T01A4 001:060 JLINK_Go() -- CPU_ReadMem(4 bytes @ 0xE0001000) (0002ms, 0747ms total)
T01A4 001:062 JLINK_IsHalted()  returns FALSE (0001ms, 0748ms total)
T01A4 001:076 JLINK_IsHalted()  returns FALSE (0000ms, 0747ms total)
T01A4 001:077 JLINK_IsHalted()  returns FALSE (0000ms, 0747ms total)
T01A4 001:079 JLINK_IsHalted()  returns FALSE (0000ms, 0747ms total)
T01A4 001:080 JLINK_IsHalted()  returns FALSE (0000ms, 0747ms total)
T01A4 001:081 JLINK_IsHalted()  returns FALSE (0000ms, 0747ms total)
T01A4 001:082 JLINK_IsHalted()  returns FALSE (0000ms, 0747ms total)
T01A4 001:083 JLINK_IsHalted()  returns FALSE (0000ms, 0747ms total)
T01A4 001:084 JLINK_IsHalted()  returns FALSE (0000ms, 0747ms total)
T01A4 001:085 JLINK_IsHalted() -- CPU_ReadMem(2 bytes @ 0x20000000)  returns TRUE (0003ms, 0750ms total)
T01A4 001:088 JLINK_ReadReg(R15 (PC))  returns 0x20000000 (0000ms, 0747ms total)
T01A4 001:088 JLINK_ClrBPEx(BPHandle = 0x00000007)  returns 0x00 (0000ms, 0747ms total)
T01A4 001:088 JLINK_ReadReg(R0)  returns 0x00000000 (0000ms, 0747ms total)
T01A4 001:089 JLINK_WriteReg(R0, 0x08001800)  returns 0x00 (0000ms, 0747ms total)
T01A4 001:089 JLINK_WriteReg(R1, 0x00000800)  returns 0x00 (0000ms, 0747ms total)
T01A4 001:089 JLINK_WriteReg(R2, 0x000000FF)  returns 0x00 (0000ms, 0747ms total)
T01A4 001:089 JLINK_WriteReg(R3, 0x00000000)  returns 0x00 (0000ms, 0747ms total)
T01A4 001:089 JLINK_WriteReg(R4, 0x00000000)  returns 0x00 (0000ms, 0747ms total)
T01A4 001:089 JLINK_WriteReg(R5, 0x00000000)  returns 0x00 (0000ms, 0747ms total)
T01A4 001:089 JLINK_WriteReg(R6, 0x00000000)  returns 0x00 (0000ms, 0747ms total)
T01A4 001:089 JLINK_WriteReg(R7, 0x00000000)  returns 0x00 (0000ms, 0747ms total)
T01A4 001:089 JLINK_WriteReg(R8, 0x00000000)  returns 0x00 (0000ms, 0747ms total)
T01A4 001:089 JLINK_WriteReg(R9, 0x20000160)  returns 0x00 (0000ms, 0747ms total)
T01A4 001:089 JLINK_WriteReg(R10, 0x00000000)  returns 0x00 (0000ms, 0747ms total)
T01A4 001:089 JLINK_WriteReg(R11, 0x00000000)  returns 0x00 (0000ms, 0747ms total)
T01A4 001:089 JLINK_WriteReg(R12, 0x00000000)  returns 0x00 (0000ms, 0747ms total)
T01A4 001:089 JLINK_WriteReg(R13 (SP), 0x20001000)  returns 0x00 (0000ms, 0747ms total)
T01A4 001:089 JLINK_WriteReg(R14, 0x20000001)  returns 0x00 (0000ms, 0747ms total)
T01A4 001:089 JLINK_WriteReg(R15 (PC), 0x20000020)  returns 0x00 (0000ms, 0747ms total)
T01A4 001:089 JLINK_WriteReg(XPSR, 0x01000000)  returns 0x00 (0001ms, 0748ms total)
T01A4 001:090 JLINK_WriteReg(MSP, 0x20001000)  returns 0x00 (0000ms, 0748ms total)
T01A4 001:090 JLINK_WriteReg(PSP, 0x20001000)  returns 0x00 (0000ms, 0748ms total)
T01A4 001:090 JLINK_WriteReg(CFBP, 0x00000000)  returns 0x00 (0000ms, 0748ms total)
T01A4 001:090 JLINK_SetBPEx(Addr = 0x20000000, Type = 0xFFFFFFF2)  returns 0x00000008 (0000ms, 0748ms total)
T01A4 001:090 JLINK_Go() -- CPU_ReadMem(4 bytes @ 0xE0001000) (0002ms, 0750ms total)
T01A4 001:092 JLINK_IsHalted() -- CPU_ReadMem(2 bytes @ 0x20000000)  returns TRUE (0003ms, 0753ms total)
T01A4 001:095 JLINK_ReadReg(R15 (PC))  returns 0x20000000 (0000ms, 0750ms total)
T01A4 001:095 JLINK_ClrBPEx(BPHandle = 0x00000008)  returns 0x00 (0000ms, 0750ms total)
T01A4 001:095 JLINK_ReadReg(R0)  returns 0x00000001 (0000ms, 0750ms total)
T01A4 001:095 JLINK_WriteReg(R0, 0x08001800)  returns 0x00 (0000ms, 0750ms total)
T01A4 001:095 JLINK_WriteReg(R1, 0x00000800)  returns 0x00 (0000ms, 0750ms total)
T01A4 001:095 JLINK_WriteReg(R2, 0x000000FF)  returns 0x00 (0001ms, 0751ms total)
T01A4 001:096 JLINK_WriteReg(R3, 0x00000000)  returns 0x00 (0000ms, 0751ms total)
T01A4 001:096 JLINK_WriteReg(R4, 0x00000000)  returns 0x00 (0000ms, 0751ms total)
T01A4 001:096 JLINK_WriteReg(R5, 0x00000000)  returns 0x00 (0000ms, 0751ms total)
T01A4 001:096 JLINK_WriteReg(R6, 0x00000000)  returns 0x00 (0000ms, 0751ms total)
T01A4 001:096 JLINK_WriteReg(R7, 0x00000000)  returns 0x00 (0000ms, 0751ms total)
T01A4 001:096 JLINK_WriteReg(R8, 0x00000000)  returns 0x00 (0000ms, 0751ms total)
T01A4 001:096 JLINK_WriteReg(R9, 0x20000160)  returns 0x00 (0000ms, 0751ms total)
T01A4 001:096 JLINK_WriteReg(R10, 0x00000000)  returns 0x00 (0000ms, 0751ms total)
T01A4 001:096 JLINK_WriteReg(R11, 0x00000000)  returns 0x00 (0000ms, 0751ms total)
T01A4 001:096 JLINK_WriteReg(R12, 0x00000000)  returns 0x00 (0000ms, 0751ms total)
T01A4 001:096 JLINK_WriteReg(R13 (SP), 0x20001000)  returns 0x00 (0000ms, 0751ms total)
T01A4 001:096 JLINK_WriteReg(R14, 0x20000001)  returns 0x00 (0000ms, 0751ms total)
T01A4 001:096 JLINK_WriteReg(R15 (PC), 0x200000B6)  returns 0x00 (0000ms, 0751ms total)
T01A4 001:096 JLINK_WriteReg(XPSR, 0x01000000)  returns 0x00 (0000ms, 0751ms total)
T01A4 001:096 JLINK_WriteReg(MSP, 0x20001000)  returns 0x00 (0000ms, 0751ms total)
T01A4 001:096 JLINK_WriteReg(PSP, 0x20001000)  returns 0x00 (0000ms, 0751ms total)
T01A4 001:096 JLINK_WriteReg(CFBP, 0x00000000)  returns 0x00 (0000ms, 0751ms total)
T01A4 001:096 JLINK_SetBPEx(Addr = 0x20000000, Type = 0xFFFFFFF2)  returns 0x00000009 (0001ms, 0752ms total)
T01A4 001:097 JLINK_Go() -- CPU_ReadMem(4 bytes @ 0xE0001000) (0002ms, 0754ms total)
T01A4 001:099 JLINK_IsHalted()  returns FALSE (0000ms, 0754ms total)
T01A4 001:100 JLINK_IsHalted()  returns FALSE (0000ms, 0754ms total)
T01A4 001:101 JLINK_IsHalted()  returns FALSE (0000ms, 0754ms total)
T01A4 001:102 JLINK_IsHalted()  returns FALSE (0000ms, 0754ms total)
T01A4 001:103 JLINK_IsHalted()  returns FALSE (0000ms, 0754ms total)
T01A4 001:104 JLINK_IsHalted()  returns FALSE (0000ms, 0754ms total)
T01A4 001:105 JLINK_IsHalted()  returns FALSE (0000ms, 0754ms total)
T01A4 001:106 JLINK_IsHalted()  returns FALSE (0000ms, 0754ms total)
T01A4 001:107 JLINK_IsHalted()  returns FALSE (0000ms, 0754ms total)
T01A4 001:108 JLINK_IsHalted()  returns FALSE (0000ms, 0754ms total)
T01A4 001:109 JLINK_IsHalted()  returns FALSE (0000ms, 0754ms total)
T01A4 001:110 JLINK_IsHalted()  returns FALSE (0000ms, 0754ms total)
T01A4 001:111 JLINK_IsHalted()  returns FALSE (0000ms, 0754ms total)
T01A4 001:112 JLINK_IsHalted()  returns FALSE (0000ms, 0754ms total)
T01A4 001:113 JLINK_IsHalted()  returns FALSE (0000ms, 0754ms total)
T01A4 001:114 JLINK_IsHalted()  returns FALSE (0000ms, 0754ms total)
T01A4 001:115 JLINK_IsHalted()  returns FALSE (0000ms, 0754ms total)
T01A4 001:116 JLINK_IsHalted()  returns FALSE (0000ms, 0754ms total)
T01A4 001:117 JLINK_IsHalted()  returns FALSE (0000ms, 0754ms total)
T01A4 001:118 JLINK_IsHalted()  returns FALSE (0000ms, 0754ms total)
T01A4 001:119 JLINK_IsHalted()  returns FALSE (0000ms, 0754ms total)
T01A4 001:120 JLINK_IsHalted()  returns FALSE (0000ms, 0754ms total)
T01A4 001:121 JLINK_IsHalted() -- CPU_ReadMem(2 bytes @ 0x20000000)  returns TRUE (0003ms, 0757ms total)
T01A4 001:124 JLINK_ReadReg(R15 (PC))  returns 0x20000000 (0000ms, 0754ms total)
T01A4 001:124 JLINK_ClrBPEx(BPHandle = 0x00000009)  returns 0x00 (0000ms, 0754ms total)
T01A4 001:124 JLINK_ReadReg(R0)  returns 0x00000000 (0000ms, 0754ms total)
T01A4 001:124 JLINK_WriteReg(R0, 0x08002000)  returns 0x00 (0001ms, 0755ms total)
T01A4 001:125 JLINK_WriteReg(R1, 0x00000800)  returns 0x00 (0000ms, 0755ms total)
T01A4 001:125 JLINK_WriteReg(R2, 0x000000FF)  returns 0x00 (0000ms, 0755ms total)
T01A4 001:125 JLINK_WriteReg(R3, 0x00000000)  returns 0x00 (0000ms, 0755ms total)
T01A4 001:125 JLINK_WriteReg(R4, 0x00000000)  returns 0x00 (0000ms, 0755ms total)
T01A4 001:125 JLINK_WriteReg(R5, 0x00000000)  returns 0x00 (0000ms, 0755ms total)
T01A4 001:125 JLINK_WriteReg(R6, 0x00000000)  returns 0x00 (0000ms, 0755ms total)
T01A4 001:125 JLINK_WriteReg(R7, 0x00000000)  returns 0x00 (0000ms, 0755ms total)
T01A4 001:125 JLINK_WriteReg(R8, 0x00000000)  returns 0x00 (0000ms, 0755ms total)
T01A4 001:125 JLINK_WriteReg(R9, 0x20000160)  returns 0x00 (0000ms, 0755ms total)
T01A4 001:125 JLINK_WriteReg(R10, 0x00000000)  returns 0x00 (0000ms, 0755ms total)
T01A4 001:125 JLINK_WriteReg(R11, 0x00000000)  returns 0x00 (0000ms, 0755ms total)
T01A4 001:125 JLINK_WriteReg(R12, 0x00000000)  returns 0x00 (0000ms, 0755ms total)
T01A4 001:125 JLINK_WriteReg(R13 (SP), 0x20001000)  returns 0x00 (0000ms, 0755ms total)
T01A4 001:125 JLINK_WriteReg(R14, 0x20000001)  returns 0x00 (0000ms, 0755ms total)
T01A4 001:125 JLINK_WriteReg(R15 (PC), 0x20000020)  returns 0x00 (0000ms, 0755ms total)
T01A4 001:125 JLINK_WriteReg(XPSR, 0x01000000)  returns 0x00 (0000ms, 0755ms total)
T01A4 001:125 JLINK_WriteReg(MSP, 0x20001000)  returns 0x00 (0000ms, 0755ms total)
T01A4 001:125 JLINK_WriteReg(PSP, 0x20001000)  returns 0x00 (0001ms, 0756ms total)
T01A4 001:126 JLINK_WriteReg(CFBP, 0x00000000)  returns 0x00 (0000ms, 0756ms total)
T01A4 001:126 JLINK_SetBPEx(Addr = 0x20000000, Type = 0xFFFFFFF2)  returns 0x0000000A (0000ms, 0756ms total)
T01A4 001:126 JLINK_Go() -- CPU_ReadMem(4 bytes @ 0xE0001000) (0002ms, 0758ms total)
T01A4 001:128 JLINK_IsHalted() -- CPU_ReadMem(2 bytes @ 0x20000000)  returns TRUE (0003ms, 0761ms total)
T01A4 001:131 JLINK_ReadReg(R15 (PC))  returns 0x20000000 (0000ms, 0758ms total)
T01A4 001:131 JLINK_ClrBPEx(BPHandle = 0x0000000A)  returns 0x00 (0000ms, 0758ms total)
T01A4 001:131 JLINK_ReadReg(R0)  returns 0x00000001 (0001ms, 0759ms total)
T01A4 001:132 JLINK_WriteReg(R0, 0x08002000)  returns 0x00 (0000ms, 0759ms total)
T01A4 001:132 JLINK_WriteReg(R1, 0x00000800)  returns 0x00 (0000ms, 0759ms total)
T01A4 001:132 JLINK_WriteReg(R2, 0x000000FF)  returns 0x00 (0000ms, 0759ms total)
T01A4 001:132 JLINK_WriteReg(R3, 0x00000000)  returns 0x00 (0000ms, 0759ms total)
T01A4 001:132 JLINK_WriteReg(R4, 0x00000000)  returns 0x00 (0000ms, 0759ms total)
T01A4 001:132 JLINK_WriteReg(R5, 0x00000000)  returns 0x00 (0000ms, 0759ms total)
T01A4 001:132 JLINK_WriteReg(R6, 0x00000000)  returns 0x00 (0000ms, 0759ms total)
T01A4 001:132 JLINK_WriteReg(R7, 0x00000000)  returns 0x00 (0000ms, 0759ms total)
T01A4 001:132 JLINK_WriteReg(R8, 0x00000000)  returns 0x00 (0000ms, 0759ms total)
T01A4 001:132 JLINK_WriteReg(R9, 0x20000160)  returns 0x00 (0000ms, 0759ms total)
T01A4 001:132 JLINK_WriteReg(R10, 0x00000000)  returns 0x00 (0000ms, 0759ms total)
T01A4 001:132 JLINK_WriteReg(R11, 0x00000000)  returns 0x00 (0000ms, 0759ms total)
T01A4 001:132 JLINK_WriteReg(R12, 0x00000000)  returns 0x00 (0000ms, 0759ms total)
T01A4 001:132 JLINK_WriteReg(R13 (SP), 0x20001000)  returns 0x00 (0000ms, 0759ms total)
T01A4 001:132 JLINK_WriteReg(R14, 0x20000001)  returns 0x00 (0000ms, 0759ms total)
T01A4 001:132 JLINK_WriteReg(R15 (PC), 0x200000B6)  returns 0x00 (0000ms, 0759ms total)
T01A4 001:132 JLINK_WriteReg(XPSR, 0x01000000)  returns 0x00 (0000ms, 0759ms total)
T01A4 001:132 JLINK_WriteReg(MSP, 0x20001000)  returns 0x00 (0000ms, 0759ms total)
T01A4 001:132 JLINK_WriteReg(PSP, 0x20001000)  returns 0x00 (0000ms, 0759ms total)
T01A4 001:133 JLINK_WriteReg(CFBP, 0x00000000)  returns 0x00 (0000ms, 0760ms total)
T01A4 001:133 JLINK_SetBPEx(Addr = 0x20000000, Type = 0xFFFFFFF2)  returns 0x0000000B (0000ms, 0760ms total)
T01A4 001:133 JLINK_Go() -- CPU_ReadMem(4 bytes @ 0xE0001000) (0002ms, 0762ms total)
T01A4 001:135 JLINK_IsHalted()  returns FALSE (0000ms, 0762ms total)
T01A4 001:136 JLINK_IsHalted()  returns FALSE (0000ms, 0762ms total)
T01A4 001:137 JLINK_IsHalted()  returns FALSE (0000ms, 0762ms total)
T01A4 001:138 JLINK_IsHalted()  returns FALSE (0000ms, 0762ms total)
T01A4 001:141 JLINK_IsHalted()  returns FALSE (0000ms, 0762ms total)
T01A4 001:142 JLINK_IsHalted()  returns FALSE (0000ms, 0762ms total)
T01A4 001:143 JLINK_IsHalted()  returns FALSE (0000ms, 0762ms total)
T01A4 001:144 JLINK_IsHalted()  returns FALSE (0000ms, 0762ms total)
T01A4 001:145 JLINK_IsHalted()  returns FALSE (0000ms, 0762ms total)
T01A4 001:146 JLINK_IsHalted()  returns FALSE (0000ms, 0762ms total)
T01A4 001:147 JLINK_IsHalted()  returns FALSE (0000ms, 0762ms total)
T01A4 001:148 JLINK_IsHalted()  returns FALSE (0000ms, 0762ms total)
T01A4 001:149 JLINK_IsHalted()  returns FALSE (0000ms, 0762ms total)
T01A4 001:150 JLINK_IsHalted()  returns FALSE (0000ms, 0762ms total)
T01A4 001:151 JLINK_IsHalted()  returns FALSE (0000ms, 0762ms total)
T01A4 001:152 JLINK_IsHalted()  returns FALSE (0000ms, 0762ms total)
T01A4 001:153 JLINK_IsHalted()  returns FALSE (0000ms, 0762ms total)
T01A4 001:154 JLINK_IsHalted()  returns FALSE (0000ms, 0762ms total)
T01A4 001:155 JLINK_IsHalted()  returns FALSE (0000ms, 0762ms total)
T01A4 001:156 JLINK_IsHalted()  returns FALSE (0000ms, 0762ms total)
T01A4 001:157 JLINK_IsHalted() -- CPU_ReadMem(2 bytes @ 0x20000000)  returns TRUE (0003ms, 0765ms total)
T01A4 001:160 JLINK_ReadReg(R15 (PC))  returns 0x20000000 (0000ms, 0762ms total)
T01A4 001:160 JLINK_ClrBPEx(BPHandle = 0x0000000B)  returns 0x00 (0000ms, 0762ms total)
T01A4 001:160 JLINK_ReadReg(R0)  returns 0x00000000 (0000ms, 0762ms total)
T01A4 001:160 JLINK_WriteReg(R0, 0x08002800)  returns 0x00 (0000ms, 0762ms total)
T01A4 001:160 JLINK_WriteReg(R1, 0x00000800)  returns 0x00 (0000ms, 0762ms total)
T01A4 001:160 JLINK_WriteReg(R2, 0x000000FF)  returns 0x00 (0000ms, 0762ms total)
T01A4 001:160 JLINK_WriteReg(R3, 0x00000000)  returns 0x00 (0000ms, 0762ms total)
T01A4 001:160 JLINK_WriteReg(R4, 0x00000000)  returns 0x00 (0000ms, 0762ms total)
T01A4 001:160 JLINK_WriteReg(R5, 0x00000000)  returns 0x00 (0001ms, 0763ms total)
T01A4 001:161 JLINK_WriteReg(R6, 0x00000000)  returns 0x00 (0000ms, 0763ms total)
T01A4 001:161 JLINK_WriteReg(R7, 0x00000000)  returns 0x00 (0000ms, 0763ms total)
T01A4 001:161 JLINK_WriteReg(R8, 0x00000000)  returns 0x00 (0000ms, 0763ms total)
T01A4 001:161 JLINK_WriteReg(R9, 0x20000160)  returns 0x00 (0000ms, 0763ms total)
T01A4 001:161 JLINK_WriteReg(R10, 0x00000000)  returns 0x00 (0000ms, 0763ms total)
T01A4 001:161 JLINK_WriteReg(R11, 0x00000000)  returns 0x00 (0000ms, 0763ms total)
T01A4 001:161 JLINK_WriteReg(R12, 0x00000000)  returns 0x00 (0000ms, 0763ms total)
T01A4 001:161 JLINK_WriteReg(R13 (SP), 0x20001000)  returns 0x00 (0000ms, 0763ms total)
T01A4 001:161 JLINK_WriteReg(R14, 0x20000001)  returns 0x00 (0000ms, 0763ms total)
T01A4 001:161 JLINK_WriteReg(R15 (PC), 0x20000020)  returns 0x00 (0000ms, 0763ms total)
T01A4 001:161 JLINK_WriteReg(XPSR, 0x01000000)  returns 0x00 (0000ms, 0763ms total)
T01A4 001:161 JLINK_WriteReg(MSP, 0x20001000)  returns 0x00 (0000ms, 0763ms total)
T01A4 001:161 JLINK_WriteReg(PSP, 0x20001000)  returns 0x00 (0000ms, 0763ms total)
T01A4 001:161 JLINK_WriteReg(CFBP, 0x00000000)  returns 0x00 (0000ms, 0763ms total)
T01A4 001:161 JLINK_SetBPEx(Addr = 0x20000000, Type = 0xFFFFFFF2)  returns 0x0000000C (0000ms, 0763ms total)
T01A4 001:161 JLINK_Go() -- CPU_ReadMem(4 bytes @ 0xE0001000) (0003ms, 0766ms total)
T01A4 001:164 JLINK_IsHalted() -- CPU_ReadMem(2 bytes @ 0x20000000)  returns TRUE (0003ms, 0769ms total)
T01A4 001:167 JLINK_ReadReg(R15 (PC))  returns 0x20000000 (0000ms, 0766ms total)
T01A4 001:167 JLINK_ClrBPEx(BPHandle = 0x0000000C)  returns 0x00 (0000ms, 0766ms total)
T01A4 001:167 JLINK_ReadReg(R0)  returns 0x00000001 (0000ms, 0766ms total)
T01A4 001:167 JLINK_WriteReg(R0, 0x08002800)  returns 0x00 (0000ms, 0766ms total)
T01A4 001:167 JLINK_WriteReg(R1, 0x00000800)  returns 0x00 (0000ms, 0766ms total)
T01A4 001:167 JLINK_WriteReg(R2, 0x000000FF)  returns 0x00 (0000ms, 0766ms total)
T01A4 001:167 JLINK_WriteReg(R3, 0x00000000)  returns 0x00 (0000ms, 0766ms total)
T01A4 001:167 JLINK_WriteReg(R4, 0x00000000)  returns 0x00 (0000ms, 0766ms total)
T01A4 001:167 JLINK_WriteReg(R5, 0x00000000)  returns 0x00 (0000ms, 0766ms total)
T01A4 001:167 JLINK_WriteReg(R6, 0x00000000)  returns 0x00 (0000ms, 0766ms total)
T01A4 001:167 JLINK_WriteReg(R7, 0x00000000)  returns 0x00 (0000ms, 0766ms total)
T01A4 001:167 JLINK_WriteReg(R8, 0x00000000)  returns 0x00 (0000ms, 0766ms total)
T01A4 001:167 JLINK_WriteReg(R9, 0x20000160)  returns 0x00 (0000ms, 0766ms total)
T01A4 001:167 JLINK_WriteReg(R10, 0x00000000)  returns 0x00 (0000ms, 0766ms total)
T01A4 001:167 JLINK_WriteReg(R11, 0x00000000)  returns 0x00 (0000ms, 0766ms total)
T01A4 001:167 JLINK_WriteReg(R12, 0x00000000)  returns 0x00 (0000ms, 0766ms total)
T01A4 001:168 JLINK_WriteReg(R13 (SP), 0x20001000)  returns 0x00 (0000ms, 0767ms total)
T01A4 001:168 JLINK_WriteReg(R14, 0x20000001)  returns 0x00 (0000ms, 0767ms total)
T01A4 001:168 JLINK_WriteReg(R15 (PC), 0x200000B6)  returns 0x00 (0000ms, 0767ms total)
T01A4 001:168 JLINK_WriteReg(XPSR, 0x01000000)  returns 0x00 (0000ms, 0767ms total)
T01A4 001:168 JLINK_WriteReg(MSP, 0x20001000)  returns 0x00 (0000ms, 0767ms total)
T01A4 001:168 JLINK_WriteReg(PSP, 0x20001000)  returns 0x00 (0000ms, 0767ms total)
T01A4 001:168 JLINK_WriteReg(CFBP, 0x00000000)  returns 0x00 (0000ms, 0767ms total)
T01A4 001:168 JLINK_SetBPEx(Addr = 0x20000000, Type = 0xFFFFFFF2)  returns 0x0000000D (0000ms, 0767ms total)
T01A4 001:168 JLINK_Go() -- CPU_ReadMem(4 bytes @ 0xE0001000) (0002ms, 0769ms total)
T01A4 001:170 JLINK_IsHalted()  returns FALSE (0000ms, 0769ms total)
T01A4 001:171 JLINK_IsHalted()  returns FALSE (0000ms, 0769ms total)
T01A4 001:185 JLINK_IsHalted()  returns FALSE (0000ms, 0769ms total)
T01A4 001:186 JLINK_IsHalted()  returns FALSE (0000ms, 0769ms total)
T01A4 001:187 JLINK_IsHalted()  returns FALSE (0000ms, 0769ms total)
T01A4 001:188 JLINK_IsHalted()  returns FALSE (0000ms, 0769ms total)
T01A4 001:189 JLINK_IsHalted()  returns FALSE (0000ms, 0769ms total)
T01A4 001:190 JLINK_IsHalted()  returns FALSE (0000ms, 0769ms total)
T01A4 001:191 JLINK_IsHalted()  returns FALSE (0000ms, 0769ms total)
T01A4 001:192 JLINK_IsHalted() -- CPU_ReadMem(2 bytes @ 0x20000000)  returns TRUE (0003ms, 0772ms total)
T01A4 001:195 JLINK_ReadReg(R15 (PC))  returns 0x20000000 (0000ms, 0769ms total)
T01A4 001:195 JLINK_ClrBPEx(BPHandle = 0x0000000D)  returns 0x00 (0000ms, 0769ms total)
T01A4 001:195 JLINK_ReadReg(R0)  returns 0x00000000 (0000ms, 0769ms total)
T01A4 001:195 JLINK_WriteReg(R0, 0x08003000)  returns 0x00 (0001ms, 0770ms total)
T01A4 001:196 JLINK_WriteReg(R1, 0x00000800)  returns 0x00 (0000ms, 0770ms total)
T01A4 001:196 JLINK_WriteReg(R2, 0x000000FF)  returns 0x00 (0000ms, 0770ms total)
T01A4 001:196 JLINK_WriteReg(R3, 0x00000000)  returns 0x00 (0000ms, 0770ms total)
T01A4 001:196 JLINK_WriteReg(R4, 0x00000000)  returns 0x00 (0000ms, 0770ms total)
T01A4 001:196 JLINK_WriteReg(R5, 0x00000000)  returns 0x00 (0000ms, 0770ms total)
T01A4 001:196 JLINK_WriteReg(R6, 0x00000000)  returns 0x00 (0000ms, 0770ms total)
T01A4 001:196 JLINK_WriteReg(R7, 0x00000000)  returns 0x00 (0000ms, 0770ms total)
T01A4 001:196 JLINK_WriteReg(R8, 0x00000000)  returns 0x00 (0000ms, 0770ms total)
T01A4 001:196 JLINK_WriteReg(R9, 0x20000160)  returns 0x00 (0000ms, 0770ms total)
T01A4 001:196 JLINK_WriteReg(R10, 0x00000000)  returns 0x00 (0000ms, 0770ms total)
T01A4 001:196 JLINK_WriteReg(R11, 0x00000000)  returns 0x00 (0000ms, 0770ms total)
T01A4 001:196 JLINK_WriteReg(R12, 0x00000000)  returns 0x00 (0000ms, 0770ms total)
T01A4 001:196 JLINK_WriteReg(R13 (SP), 0x20001000)  returns 0x00 (0000ms, 0770ms total)
T01A4 001:196 JLINK_WriteReg(R14, 0x20000001)  returns 0x00 (0000ms, 0770ms total)
T01A4 001:196 JLINK_WriteReg(R15 (PC), 0x20000020)  returns 0x00 (0000ms, 0770ms total)
T01A4 001:196 JLINK_WriteReg(XPSR, 0x01000000)  returns 0x00 (0000ms, 0770ms total)
T01A4 001:196 JLINK_WriteReg(MSP, 0x20001000)  returns 0x00 (0000ms, 0770ms total)
T01A4 001:196 JLINK_WriteReg(PSP, 0x20001000)  returns 0x00 (0000ms, 0770ms total)
T01A4 001:197 JLINK_WriteReg(CFBP, 0x00000000)  returns 0x00 (0000ms, 0771ms total)
T01A4 001:197 JLINK_SetBPEx(Addr = 0x20000000, Type = 0xFFFFFFF2)  returns 0x0000000E (0000ms, 0771ms total)
T01A4 001:197 JLINK_Go() -- CPU_ReadMem(4 bytes @ 0xE0001000) (0002ms, 0773ms total)
T01A4 001:199 JLINK_IsHalted() -- CPU_ReadMem(2 bytes @ 0x20000000)  returns TRUE (0003ms, 0776ms total)
T01A4 001:202 JLINK_ReadReg(R15 (PC))  returns 0x20000000 (0000ms, 0773ms total)
T01A4 001:202 JLINK_ClrBPEx(BPHandle = 0x0000000E)  returns 0x00 (0000ms, 0773ms total)
T01A4 001:202 JLINK_ReadReg(R0)  returns 0x00000001 (0000ms, 0773ms total)
T01A4 001:202 JLINK_WriteReg(R0, 0x08003000)  returns 0x00 (0001ms, 0774ms total)
T01A4 001:203 JLINK_WriteReg(R1, 0x00000800)  returns 0x00 (0000ms, 0774ms total)
T01A4 001:203 JLINK_WriteReg(R2, 0x000000FF)  returns 0x00 (0000ms, 0774ms total)
T01A4 001:203 JLINK_WriteReg(R3, 0x00000000)  returns 0x00 (0000ms, 0774ms total)
T01A4 001:203 JLINK_WriteReg(R4, 0x00000000)  returns 0x00 (0000ms, 0774ms total)
T01A4 001:203 JLINK_WriteReg(R5, 0x00000000)  returns 0x00 (0000ms, 0774ms total)
T01A4 001:203 JLINK_WriteReg(R6, 0x00000000)  returns 0x00 (0000ms, 0774ms total)
T01A4 001:203 JLINK_WriteReg(R7, 0x00000000)  returns 0x00 (0000ms, 0774ms total)
T01A4 001:203 JLINK_WriteReg(R8, 0x00000000)  returns 0x00 (0000ms, 0774ms total)
T01A4 001:203 JLINK_WriteReg(R9, 0x20000160)  returns 0x00 (0000ms, 0774ms total)
T01A4 001:203 JLINK_WriteReg(R10, 0x00000000)  returns 0x00 (0000ms, 0774ms total)
T01A4 001:203 JLINK_WriteReg(R11, 0x00000000)  returns 0x00 (0000ms, 0774ms total)
T01A4 001:203 JLINK_WriteReg(R12, 0x00000000)  returns 0x00 (0000ms, 0774ms total)
T01A4 001:203 JLINK_WriteReg(R13 (SP), 0x20001000)  returns 0x00 (0000ms, 0774ms total)
T01A4 001:203 JLINK_WriteReg(R14, 0x20000001)  returns 0x00 (0000ms, 0774ms total)
T01A4 001:203 JLINK_WriteReg(R15 (PC), 0x200000B6)  returns 0x00 (0000ms, 0774ms total)
T01A4 001:203 JLINK_WriteReg(XPSR, 0x01000000)  returns 0x00 (0000ms, 0774ms total)
T01A4 001:203 JLINK_WriteReg(MSP, 0x20001000)  returns 0x00 (0000ms, 0774ms total)
T01A4 001:204 JLINK_WriteReg(PSP, 0x20001000)  returns 0x00 (0000ms, 0775ms total)
T01A4 001:204 JLINK_WriteReg(CFBP, 0x00000000)  returns 0x00 (0000ms, 0775ms total)
T01A4 001:204 JLINK_SetBPEx(Addr = 0x20000000, Type = 0xFFFFFFF2)  returns 0x0000000F (0000ms, 0775ms total)
T01A4 001:204 JLINK_Go() -- CPU_ReadMem(4 bytes @ 0xE0001000) (0002ms, 0777ms total)
T01A4 001:206 JLINK_IsHalted()  returns FALSE (0000ms, 0777ms total)
T01A4 001:207 JLINK_IsHalted()  returns FALSE (0000ms, 0777ms total)
T01A4 001:208 JLINK_IsHalted()  returns FALSE (0000ms, 0777ms total)
T01A4 001:209 JLINK_IsHalted()  returns FALSE (0000ms, 0777ms total)
T01A4 001:210 JLINK_IsHalted()  returns FALSE (0000ms, 0777ms total)
T01A4 001:211 JLINK_IsHalted()  returns FALSE (0000ms, 0777ms total)
T01A4 001:212 JLINK_IsHalted()  returns FALSE (0000ms, 0777ms total)
T01A4 001:213 JLINK_IsHalted()  returns FALSE (0000ms, 0777ms total)
T01A4 001:214 JLINK_IsHalted()  returns FALSE (0000ms, 0777ms total)
T01A4 001:215 JLINK_IsHalted()  returns FALSE (0000ms, 0777ms total)
T01A4 001:216 JLINK_IsHalted()  returns FALSE (0000ms, 0777ms total)
T01A4 001:217 JLINK_IsHalted()  returns FALSE (0000ms, 0777ms total)
T01A4 001:218 JLINK_IsHalted()  returns FALSE (0000ms, 0777ms total)
T01A4 001:219 JLINK_IsHalted()  returns FALSE (0000ms, 0777ms total)
T01A4 001:220 JLINK_IsHalted()  returns FALSE (0000ms, 0777ms total)
T01A4 001:221 JLINK_IsHalted()  returns FALSE (0000ms, 0777ms total)
T01A4 001:222 JLINK_IsHalted()  returns FALSE (0000ms, 0777ms total)
T01A4 001:223 JLINK_IsHalted()  returns FALSE (0000ms, 0777ms total)
T01A4 001:224 JLINK_IsHalted()  returns FALSE (0000ms, 0777ms total)
